Freq.	V(vout)
1.00000000000000e+00	(-2.46362006040598e-03dB,-5.40869077124116e+00°)
1.02329299228075e+00	(-2.47188895170744e-03dB,-5.53505894027547e+00°)
1.04712854805090e+00	(-2.48095560188992e-03dB,-5.66439792789998e+00°)
1.07151930523761e+00	(-2.49089697407006e-03dB,-5.79677887454012e+00°)
1.09647819614318e+00	(-2.50179745590506e-03dB,-5.93227471491155e+00°)
1.12201845430196e+00	(-2.51374957574625e-03dB,-6.07096022942952e+00°)
1.14815362149688e+00	(-2.52685478788160e-03dB,-6.21291209747892e+00°)
1.17489755493953e+00	(-2.54122433344470e-03dB,-6.35820895263258e+00°)
1.20226443461741e+00	(-2.55698018440435e-03dB,-6.50693143991050e+00°)
1.23026877081238e+00	(-2.57425607852783e-03dB,-6.65916227517762e+00°)
1.25892541179417e+00	(-2.59319865415402e-03dB,-6.81498630678322e+00°)
1.28824955169313e+00	(-2.61396869436112e-03dB,-6.97449057955055e+00°)
1.31825673855641e+00	(-2.63674249107912e-03dB,-7.13776440123147e+00°)
1.34896288259165e+00	(-2.66171334073764e-03dB,-7.30489941154704e+00°)
1.38038426460288e+00	(-2.68909318399967e-03dB,-7.47598965394141e+00°)
1.41253754462275e+00	(-2.71911440360183e-03dB,-7.65113165018368e+00°)
1.44543977074593e+00	(-2.75203179543456e-03dB,-7.83042447795921e+00°)
1.47910838816821e+00	(-2.78812472956633e-03dB,-8.01396985159966e+00°)
1.51356124843621e+00	(-2.82769951946758e-03dB,-8.20187220610906e+00°)
1.54881661891248e+00	(-2.87109201948008e-03dB,-8.39423878465112e+00°)
1.58489319246111e+00	(-2.91867047251976e-03dB,-8.59117972967194e+00°)
1.62181009735893e+00	(-2.97083863201210e-03dB,-8.79280817784111e+00°)
1.65958690743756e+00	(-3.02803918443294e-03dB,-8.99924035900325e+00°)
1.69824365246174e+00	(-3.09075750141987e-03dB,-9.21059569934208e+00°)
1.73780082874937e+00	(-3.15952575297680e-03dB,-9.42699692896838e+00°)
1.77827941003892e+00	(-3.23492741655847e-03dB,-9.64857019415389e+00°)
1.81970085860998e+00	(-3.31760221996697e-03dB,-9.87544517444332e+00°)
1.86208713666287e+00	(-3.40825155964554e-03dB,-1.01077552048870e+01°)
1.90546071796325e+00	(-3.50764444008128e-03dB,-1.03456374036480e+01°)
1.94984459975804e+00	(-3.61662398400361e-03dB,-1.05892328052476e+01°)
1.99526231496888e+00	(-3.73611456828155e-03dB,-1.08386864997242e+01°)
2.04173794466953e+00	(-3.86712964518184e-03dB,-1.10941477779911e+01°)
2.08929613085404e+00	(-4.01078031462563e-03dB,-1.13557702836898e+01°)
2.13796208950223e+00	(-4.16828471906706e-03dB,-1.16237121718438e+01°)
2.18776162394955e+00	(-4.34097833959036e-03dB,-1.18981362746289e+01°)
2.23872113856834e+00	(-4.53032527899380e-03dB,-1.21792102745841e+01°)
2.29086765276777e+00	(-4.73793062590848e-03dB,-1.24671068855952e+01°)
2.34422881531992e+00	(-4.96555400265016e-03dB,-1.27620040419893e+01°)
2.39883291901949e+00	(-5.21512440922458e-03dB,-1.30640850960820e+01°)
2.45470891568503e+00	(-5.48875648631779e-03dB,-1.33735390245263e+01°)
2.51188643150958e+00	(-5.78876833146187e-03dB,-1.36905606438067e+01°)
2.57039578276886e+00	(-6.11770101514592e-03dB,-1.40153508352232e+01°)
2.63026799189538e+00	(-6.47833995695534e-03dB,-1.43481167797052e+01°)
2.69153480392691e+00	(-6.87373833666698e-03dB,-1.46890722027793e+01°)
2.75422870333816e+00	(-7.30724273107213e-03dB,-1.50384376300065e+01°)
2.81838293126445e+00	(-7.78252118465699e-03dB,-1.53964406531786e+01°)
2.88403150312660e+00	(-8.30359394096751e-03dB,-1.57633162075371e+01°)
2.95120922666638e+00	(-8.87486708187827e-03dB,-1.61393068602409e+01°)
3.01995172040201e+00	(-9.50116934378179e-03dB,-1.65246631102641e+01°)
3.09029543251359e+00	(-1.01877924034521e-02dB,-1.69196436998475e+01°)
3.16227766016837e+00	(-1.09405349518651e-02dB,-1.73245159375568e+01°)
3.23593656929628e+00	(-1.17657509016612e-02dB,-1.77395560329173e+01°)
3.31131121482591e+00	(-1.26704021031144e-02dB,-1.81650494424902e+01°)
3.38844156139202e+00	(-1.36621159753681e-02dB,-1.86012912271358e+01°)
3.46736850452531e+00	(-1.47492484927993e-02dB,-1.90485864200621e+01°)
3.54813389233575e+00	(-1.59409530023229e-02dB,-1.95072504050851e+01°)
3.63078054770101e+00	(-1.72472553851191e-02dB,-1.99776093043293e+01°)
3.71535229097172e+00	(-1.86791361161874e-02dB,-2.04600003743548e+01°)
3.80189396320560e+00	(-2.02486198167760e-02dB,-2.09547724094279e+01°)
3.89045144994280e+00	(-2.19688729385599e-02dB,-2.14622861503296e+01°)
3.98107170553496e+00	(-2.38543102631799e-02dB,-2.19829146967256e+01°)
4.07380277804112e+00	(-2.59207109473848e-02dB,-2.25170439206970e+01°)
4.16869383470335e+00	(-2.81853448905935e-02dB,-2.30650728785368e+01°)
4.26579518801592e+00	(-3.06671102489320e-02dB,-2.36274142173559e+01°)
4.36515832240165e+00	(-3.33866829657751e-02dB,-2.42044945723964e+01°)
4.46683592150962e+00	(-3.63666792333490e-02dB,-2.47967549502178e+01°)
4.57088189614874e+00	(-3.96318318409233e-02dB,-2.54046510920855e+01°)
4.67735141287197e+00	(-4.32091814018636e-02dB,-2.60286538109492e+01°)
4.78630092322637e+00	(-4.71282834812628e-02dB,-2.66692492943291e+01°)
4.89778819368445e+00	(-5.14214326664967e-02dB,-2.73269393642348e+01°)
5.01187233627271e+00	(-5.61239046316018e-02dB,-2.80022416838948e+01°)
5.12861383991364e+00	(-6.12742172389854e-02dB,-2.86956898995833e+01°)
5.24807460249771e+00	(-6.69144116952699e-02dB,-2.94078337041662e+01°)
5.37031796370252e+00	(-7.30903547264957e-02dB,-3.01392388071604e+01°)
5.49540873857623e+00	(-7.98520626559416e-02dB,-3.08904867940864e+01°)
5.62341325190348e+00	(-8.72540481488975e-02dB,-3.16621748557040e+01°)
5.75439937337156e+00	(-9.53556902251099e-02dB,-3.24549153653519e+01°)
5.88843655355588e+00	(-1.04221627922576e-01dB,-3.32693352800710e+01°)
6.02559586074356e+00	(-1.13922177716177e-01dB,-3.41060753384994e+01°)
6.16595001861481e+00	(-1.24533774440347e-01dB,-3.49657890257105e+01°)
6.30957344480192e+00	(-1.36139435024671e-01dB,-3.58491412722632e+01°)
6.45654229034654e+00	(-1.48829243812053e-01dB,-3.67568068518040e+01°)
6.60693448007594e+00	(-1.62700857577578e-01dB,-3.76894684386879e+01°)
6.76082975391980e+00	(-1.77860027588375e-01dB,-3.86478142843567e+01°)
6.91830970918935e+00	(-1.94421135127168e-01dB,-3.96325354687782e+01°)
7.07945784384136e+00	(-2.12507735832356e-01dB,-4.06443226812506e+01°)
7.24435960074988e+00	(-2.32253106974474e-01dB,-4.16838624835330e+01°)
7.41310241300916e+00	(-2.53800790385773e-01dB,-4.27518330077960e+01°)
7.58577575029182e+00	(-2.77305122184035e-01dB,-4.38488990425933e+01°)
7.76247116628690e+00	(-3.02931738687805e-01dB,-4.49757064622511e+01°)
7.94328234724279e+00	(-3.30858046022362e-01dB,-4.61328759591353e+01°)
8.12830516164097e+00	(-3.61273638889536e-01dB,-4.73209960445767e+01°)
8.31763771102669e+00	(-3.94380651860479e-01dB,-4.85406152932584e+01°)
8.51138038202374e+00	(-4.30394024408317e-01dB,-4.97922338180147e+01°)
8.70963589956078e+00	(-4.69541658806429e-01dB,-5.10762939777032e+01°)
8.91250938133743e+00	(-5.12064448082185e-01dB,-5.23931703404411e+01°)
9.12010839355907e+00	(-5.58216149564873e-01dB,-5.37431589483462e+01°)
9.33254300796988e+00	(-6.08263078354689e-01dB,-5.51264659581189e+01°)
9.54992586021433e+00	(-6.62483594448458e-01dB,-5.65431957642804e+01°)
9.77237220955808e+00	(-7.21167357485539e-01dB,-5.79933387483109e+01°)
9.99999999999997e+00	(-7.84614324338488e-01dB,-5.94767588366160e+01°)
1.02329299228075e+01	(-8.53133467279342e-01dB,-6.09931810921099e+01°)
1.04712854805090e+01	(-9.27041194402844e-01dB,-6.25421796066823e+01°)
1.07151930523760e+01	(-1.00665945954366e+00dB,-6.41231660028767e+01°)
1.09647819614318e+01	(-1.09231355618653e+00dB,-6.57353788902255e+01°)
1.12201845430196e+01	(-1.18432959885045e+00dB,-6.73778746519430e+01°)
1.14815362149688e+01	(-1.28303170602860e+00dB,-6.90495199578221e+01°)
1.17489755493953e+01	(-1.38873891074613e+00dB,-7.07489864059045e+01°)
1.20226443461741e+01	(-1.50176183776258e+00dB,-7.24747476856082e+01°)
1.23026877081238e+01	(-1.62239919984137e+00dB,-7.42250796258282e+01°)
1.25892541179416e+01	(-1.75093417862907e+00dB,-7.59980634412039e+01°)
1.28824955169313e+01	(-1.88763076770932e+00dB,-7.77915924176336e+01°)
1.31825673855640e+01	(-2.03273016542484e+00dB,-7.96033821850513e+01°)
1.34896288259165e+01	(-2.18644731219930e+00dB,-8.14309846140540e+01°)
1.38038426460288e+01	(-2.34896767052704e+00dB,-8.32718052475551e+01°)
1.41253754462275e+01	(-2.52044434488682e+00dB,-8.51231240452950e+01°)
1.44543977074592e+01	(-2.70099563319240e+00dB,-8.69821190851690e+01°)
1.47910838816820e+01	(-2.89070309095404e+00dB,-8.88458927391460e+01°)
1.51356124843620e+01	(-3.08961017439412e+00dB,-9.07114997314047e+01°)
1.54881661891248e+01	(-3.29772151000961e+00dB,-9.25759763998979e+01°)
1.58489319246111e+01	(-3.51500281650286e+00dB,-9.44363704261540e+01°)
1.62181009735892e+01	(-3.74138148186599e+00dB,-9.62897702759420e+01°)
1.65958690743755e+01	(-3.97674777509787e+00dB,-9.81333336071411e+01°)
1.69824365246174e+01	(-4.22095664996968e+00dB,-9.99643139497228e+01°)
1.73780082874937e+01	(-4.47383007873318e+00dB,-1.01780085042552e+02°)
1.77827941003892e+01	(-4.73515983775396e+00dB,-1.03578162316878e+02°)
1.81970085860998e+01	(-5.00471065550650e+00dB,-1.05356221139509e+02°)
1.86208713666286e+01	(-5.28222362657721e+00dB,-1.07112111561486e+02°)
1.90546071796324e+01	(-5.56741979331189e+00dB,-1.08843869452219e+02°)
1.94984459975804e+01	(-5.86000379919717e+00dB,-1.10549724026997e+02°)
1.99526231496887e+01	(-6.15966752439416e+00dB,-1.12228101890941e+02°)
2.04173794466952e+01	(-6.46609362326482e+00dB,-1.13877627820234e+02°)
2.08929613085403e+01	(-6.77895889536207e+00dB,-1.15497122578675e+02°)
2.13796208950222e+01	(-7.09793743429334e+00dB,-1.17085598123067e+02°)
2.18776162394954e+01	(-7.42270351226577e+00dB,-1.18642250585059e+02°)
2.23872113856833e+01	(-7.75293417124471e+00dB,-1.20166451431257e+02°)
2.29086765276776e+01	(-8.08831150391269e+00dB,-1.21657737200399e+02°)
2.34422881531991e+01	(-8.42852461857177e+00dB,-1.23115798199105e+02°)
2.39883291901948e+01	(-8.77327129151187e+00dB,-1.24540466509572e+02°)
2.45470891568502e+01	(-9.12225931804116e+00dB,-1.25931703626818e+02°)
2.51188643150957e+01	(-9.47520757932872e+00dB,-1.27289588002687e+02°)
2.57039578276885e+01	(-9.83184684652802e+00dB,-1.28614302731524e+02°)
2.63026799189537e+01	(-1.01919203464828e+01dB,-1.29906123570209e+02°)
2.69153480392690e+01	(-1.05551841148534e+01dB,-1.31165407444974e+02°)
2.75422870333815e+01	(-1.09214071629568e+01dB,-1.32392581560115e+02°)
2.81838293126444e+01	(-1.12903714841960e+01dB,-1.33588133190277e+02°)
2.88403150312659e+01	(-1.16618719248741e+01dB,-1.34752600208733e+02°)
2.95120922666637e+01	(-1.20357159426276e+01dB,-1.35886562379233e+02°)
3.01995172040200e+01	(-1.24117232738287e+01dB,-1.36990633418375e+02°)
3.09029543251358e+01	(-1.27897255292466e+01dB,-1.38065453818834e+02°)
3.16227766016837e+01	(-1.31695657351153e+01dB,-1.39111684410841e+02°)
3.23593656929627e+01	(-1.35510978346324e+01dB,-1.40130000629572e+02°)
3.31131121482590e+01	(-1.39341861628579e+01dB,-1.41121087449193e+02°)
3.38844156139201e+01	(-1.43187049060555e+01dB,-1.42085634939719e+02°)
3.46736850452530e+01	(-1.47045375547324e+01dB,-1.43024334400296e+02°)
3.54813389233574e+01	(-1.50915763580207e+01dB,-1.43937875021411e+02°)
3.63078054770100e+01	(-1.54797217855970e+01dB,-1.44826941028821e+02°)
3.71535229097171e+01	(-1.58688820020659e+01dB,-1.45692209263105e+02°)
3.80189396320559e+01	(-1.62589723576230e+01dB,-1.46534347150621e+02°)
3.89045144994279e+01	(-1.66499148978638e+01dB,-1.47354011024003e+02°)
3.98107170553495e+01	(-1.70416378947910e+01dB,-1.48151844752995e+02°)
4.07380277804111e+01	(-1.74340754003960e+01dB,-1.48928478649275e+02°)
4.16869383470333e+01	(-1.78271668236233e+01dB,-1.49684528611836e+02°)
4.26579518801591e+01	(-1.82208565310659e+01dB,-1.50420595482424e+02°)
4.36515832240164e+01	(-1.86150934713640e+01dB,-1.51137264583345e+02°)
4.46683592150961e+01	(-1.90098308229841e+01dB,-1.51835105412719e+02°)
4.57088189614873e+01	(-1.94050256648254e+01dB,-1.52514671474785e+02°)
4.67735141287196e+01	(-1.98006386689211e+01dB,-1.53176500225326e+02°)
4.78630092322636e+01	(-2.01966338143784e+01dB,-1.53821113114474e+02°)
4.89778819368444e+01	(-2.05929781216071e+01dB,-1.54449015711235e+02°)
5.01187233627270e+01	(-2.09896414058304e+01dB,-1.55060697895934e+02°)
5.12861383991362e+01	(-2.13865960488378e+01dB,-1.55656634108494e+02°)
5.24807460249770e+01	(-2.17838167879314e+01dB,-1.56237283641971e+02°)
5.37031796370250e+01	(-2.21812805210173e+01dB,-1.56803090972188e+02°)
5.49540873857622e+01	(-2.25789661268170e+01dB,-1.57354486115487e+02°)
5.62341325190346e+01	(-2.29768542991979e+01dB,-1.57891885007775e+02°)
5.75439937337154e+01	(-2.33749273946569e+01dB,-1.58415689898948e+02°)
5.88843655355586e+01	(-2.37731692920353e+01dB,-1.58926289757694e+02°)
6.02559586074355e+01	(-2.41715652635812e+01dB,-1.59424060682401e+02°)
6.16595001861479e+01	(-2.45701018565268e+01dB,-1.59909366314559e+02°)
6.30957344480190e+01	(-2.49687667843904e+01dB,-1.60382558251644e+02°)
6.45654229034652e+01	(-2.53675488272635e+01dB,-1.60843976456975e+02°)
6.60693448007593e+01	(-2.57664377403878e+01dB,-1.61293949664460e+02°)
6.76082975391978e+01	(-2.61654241703726e+01dB,-1.61732795776551e+02°)
6.91830970918933e+01	(-2.65644995784471e+01dB,-1.62160822254056e+02°)
7.07945784384134e+01	(-2.69636561701853e+01dB,-1.62578326496720e+02°)
7.24435960074986e+01	(-2.73628868311802e+01dB,-1.62985596213766e+02°)
7.41310241300914e+01	(-2.77621850681824e+01dB,-1.63382909783765e+02°)
7.58577575029180e+01	(-2.81615449552552e+01dB,-1.63770536603407e+02°)
7.76247116628688e+01	(-2.85609610845327e+01dB,-1.64148737424872e+02°)
7.94328234724277e+01	(-2.89604285211967e+01dB,-1.64517764681656e+02°)
8.12830516164095e+01	(-2.93599427623216e+01dB,-1.64877862802777e+02°)
8.31763771102667e+01	(-2.97594996992625e+01dB,-1.65229268515421e+02°)
8.51138038202372e+01	(-3.01590955832864e+01dB,-1.65572211136118e+02°)
8.70963589956076e+01	(-3.05587269941745e+01dB,-1.65906912850621e+02°)
8.91250938133741e+01	(-3.09583908115407e+01dB,-1.66233588982707e+02°)
9.12010839355905e+01	(-3.13580841886370e+01dB,-1.66552448252156e+02°)
9.33254300796986e+01	(-3.17578045284321e+01dB,-1.66863693022186e+02°)
9.54992586021431e+01	(-3.21575494617683e+01dB,-1.67167519536664e+02°)
9.77237220955805e+01	(-3.25573168274193e+01dB,-1.67464118147405e+02°)
9.99999999999995e+01	(-3.29571046538844e+01dB,-1.67753673531902e+02°)
1.02329299228075e+02	(-3.33569111427693e+01dB,-1.68036364901833e+02°)
1.04712854805089e+02	(-3.37567346536168e+01dB,-1.68312366202678e+02°)
1.07151930523760e+02	(-3.41565736900624e+01dB,-1.68581846304809e+02°)
1.09647819614318e+02	(-3.45564268871982e+01dB,-1.68844969186389e+02°)
1.12201845430196e+02	(-3.49562930000430e+01dB,-1.69101894108410e+02°)
1.14815362149688e+02	(-3.53561708930194e+01dB,-1.69352775782229e+02°)
1.17489755493952e+02	(-3.57560595303526e+01dB,-1.69597764529900e+02°)
1.20226443461741e+02	(-3.61559579673100e+01dB,-1.69837006437637e+02°)
1.23026877081237e+02	(-3.65558653422077e+01dB,-1.70070643502714e+02°)
1.25892541179416e+02	(-3.69557808691177e+01dB,-1.70298813774094e+02°)
1.28824955169313e+02	(-3.73557038312146e+01dB,-1.70521651487081e+02°)
1.31825673855640e+02	(-3.77556335747052e+01dB,-1.70739287192275e+02°)
1.34896288259165e+02	(-3.81555695032911e+01dB,-1.70951847879083e+02°)
1.38038426460288e+02	(-3.85555110731173e+01dB,-1.71159457094065e+02°)
1.41253754462275e+02	(-3.89554577881633e+01dB,-1.71362235054339e+02°)
1.44543977074592e+02	(-3.93554091960398e+01dB,-1.71560298756286e+02°)
1.47910838816820e+02	(-3.97553648841537e+01dB,-1.71753762079794e+02°)
1.51356124843620e+02	(-4.01553244762104e+01dB,-1.71942735888227e+02°)
1.54881661891247e+02	(-4.05552876290231e+01dB,-1.72127328124354e+02°)
1.58489319246110e+02	(-4.09552540296026e+01dB,-1.72307643902408e+02°)
1.62181009735892e+02	(-4.13552233925023e+01dB,-1.72483785596474e+02°)
1.65958690743755e+02	(-4.17551954573974e+01dB,-1.72655852925381e+02°)
1.69824365246173e+02	(-4.21551699868759e+01dB,-1.72823943034256e+02°)
1.73780082874936e+02	(-4.25551467644246e+01dB,-1.72988150572919e+02°)
1.77827941003891e+02	(-4.29551255925916e+01dB,-1.73148567771242e+02°)
1.81970085860997e+02	(-4.33551062913107e+01dB,-1.73305284511649e+02°)
1.86208713666286e+02	(-4.37550886963729e+01dB,-1.73458388398862e+02°)
1.90546071796323e+02	(-4.41550726580323e+01dB,-1.73607964827046e+02°)
1.94984459975803e+02	(-4.45550580397352e+01dB,-1.73754097044462e+02°)
1.99526231496887e+02	(-4.49550447169600e+01dB,-1.73896866215750e+02°)
2.04173794466952e+02	(-4.53550325761600e+01dB,-1.74036351481955e+02°)
2.08929613085403e+02	(-4.57550215137990e+01dB,-1.74172630018391e+02°)
2.13796208950222e+02	(-4.61550114354711e+01dB,-1.74305777090455e+02°)
2.18776162394954e+02	(-4.65550022550994e+01dB,-1.74435866107477e+02°)
2.23872113856832e+02	(-4.69549938942036e+01dB,-1.74562968674696e+02°)
2.29086765276776e+02	(-4.73549862812330e+01dB,-1.74687154643450e+02°)
2.34422881531991e+02	(-4.77549793509583e+01dB,-1.74808492159661e+02°)
2.39883291901947e+02	(-4.81549730439165e+01dB,-1.74927047710683e+02°)
2.45470891568501e+02	(-4.85549673059048e+01dB,-1.75042886170598e+02°)
2.51188643150956e+02	(-4.89549620875193e+01dB,-1.75156070844022e+02°)
2.57039578276885e+02	(-4.93549573437342e+01dB,-1.75266663508478e+02°)
2.63026799189536e+02	(-4.97549530335178e+01dB,-1.75374724455422e+02°)
2.69153480392690e+02	(-5.01549491194833e+01dB,-1.75480312529950e+02°)
2.75422870333815e+02	(-5.05549455675688e+01dB,-1.75583485169271e+02°)
2.81838293126443e+02	(-5.09549423467474e+01dB,-1.75684298439973e+02°)
2.88403150312659e+02	(-5.13549394287612e+01dB,-1.75782807074162e+02°)
2.95120922666637e+02	(-5.17549367878800e+01dB,-1.75879064504488e+02°)
3.01995172040200e+02	(-5.21549344006806e+01dB,-1.75973122898137e+02°)
3.09029543251357e+02	(-5.25549322458458e+01dB,-1.76065033189810e+02°)
3.16227766016836e+02	(-5.29549303039815e+01dB,-1.76154845113743e+02°)
3.23593656929626e+02	(-5.33549285574495e+01dB,-1.76242607234801e+02°)
3.31131121482589e+02	(-5.37549269902155e+01dB,-1.76328366978689e+02°)
3.38844156139200e+02	(-5.41549255877100e+01dB,-1.76412170661313e+02°)
3.46736850452529e+02	(-5.45549243367027e+01dB,-1.76494063517332e+02°)
3.54813389233573e+02	(-5.49549232251866e+01dB,-1.76574089727930e+02°)
3.63078054770099e+02	(-5.53549222422736e+01dB,-1.76652292447831e+02°)
3.71535229097170e+02	(-5.57549213780988e+01dB,-1.76728713831614e+02°)
3.80189396320558e+02	(-5.61549206237338e+01dB,-1.76803395059332e+02°)
3.89045144994278e+02	(-5.65549199711071e+01dB,-1.76876376361473e+02°)
3.98107170553494e+02	(-5.69549194129322e+01dB,-1.76947697043296e+02°)
4.07380277804110e+02	(-5.73549189426423e+01dB,-1.77017395508563e+02°)
4.16869383470332e+02	(-5.77549185543303e+01dB,-1.77085509282694e+02°)
4.26579518801589e+02	(-5.81549182426949e+01dB,-1.77152075035374e+02°)
4.36515832240163e+02	(-5.85549180029909e+01dB,-1.77217128602626e+02°)
4.46683592150960e+02	(-5.89549178309849e+01dB,-1.77280705008392e+02°)
4.57088189614872e+02	(-5.93549177229146e+01dB,-1.77342838485630e+02°)
4.67735141287195e+02	(-5.97549176754518e+01dB,-1.77403562496957e+02°)
4.78630092322635e+02	(-6.01549176856689e+01dB,-1.77462909754854e+02°)
4.89778819368442e+02	(-6.05549177510091e+01dB,-1.77520912241473e+02°)
5.01187233627268e+02	(-6.09549178692587e+01dB,-1.77577601228045e+02°)
5.12861383991361e+02	(-6.13549180385225e+01dB,-1.77633007293921e+02°)
5.24807460249769e+02	(-6.17549182572017e+01dB,-1.77687160345281e+02°)
5.37031796370249e+02	(-6.21549185239735e+01dB,-1.77740089633507e+02°)
5.49540873857620e+02	(-6.25549188377734e+01dB,-1.77791823773258e+02°)
5.62341325190345e+02	(-6.29549191977789e+01dB,-1.77842390760273e+02°)
5.75439937337152e+02	(-6.33549196033949e+01dB,-1.77891817988909e+02°)
5.88843655355584e+02	(-6.37549200542415e+01dB,-1.77940132269445e+02°)
6.02559586074353e+02	(-6.41549205501416e+01dB,-1.77987359845177e+02°)
6.16595001861477e+02	(-6.45549210911115e+01dB,-1.78033526409320e+02°)
6.30957344480188e+02	(-6.49549216773519e+01dB,-1.78078657121741e+02°)
6.45654229034650e+02	(-6.53549223092402e+01dB,-1.78122776625555e+02°)
6.60693448007591e+02	(-6.57549229873235e+01dB,-1.78165909063600e+02°)
6.76082975391976e+02	(-6.61549237123132e+01dB,-1.78208078094812e+02°)
6.91830970918931e+02	(-6.65549244850802e+01dB,-1.78249306910541e+02°)
