Freq.	V(vout)
1.00000000000000e+00	(-6.42672638843850e-03dB,-5.96875132074759e+00°)
1.02329299228075e+00	(-6.62140869753188e-03dB,-6.10816700073792e+00°)
1.04712854805090e+00	(-6.82576507264120e-03dB,-6.25085749805118e+00°)
1.07151930523761e+00	(-7.04029950055475e-03dB,-6.39690103258155e+00°)
1.09647819614318e+00	(-7.26554434540227e-03dB,-6.54637778238646e+00°)
1.12201845430196e+00	(-7.50206213052197e-03dB,-6.69936993872779e+00°)
1.14815362149688e+00	(-7.75044744685420e-03dB,-6.85596176303145e+00°)
1.17489755493953e+00	(-8.01132899808180e-03dB,-7.01623964585074e+00°)
1.20226443461741e+00	(-8.28537179295681e-03dB,-7.18029216792352e+00°)
1.23026877081238e+00	(-8.57327949730499e-03dB,-7.34821016341728e+00°)
1.25892541179417e+00	(-8.87579695807901e-03dB,-7.52008678546139e+00°)
1.28824955169313e+00	(-9.19371291359603e-03dB,-7.69601757407036e+00°)
1.31825673855641e+00	(-9.52786290485690e-03dB,-7.87610052656745e+00°)
1.34896288259165e+00	(-9.87913240512256e-03dB,-8.06043617062279e+00°)
1.38038426460288e+00	(-1.02484601846984e-02dB,-8.24912764002625e+00°)
1.41253754462275e+00	(-1.06368419312401e-02dB,-8.44228075332054e+00°)
1.44543977074593e+00	(-1.10453341463146e-02dB,-8.64000409542598e+00°)
1.47910838816821e+00	(-1.14750583415214e-02dB,-8.84240910239485e+00°)
1.51356124843621e+00	(-1.19272055588945e-02dB,-9.04961014943868e+00°)
1.54881661891248e+00	(-1.24030412432594e-02dB,-9.26172464237879e+00°)
1.58489319246111e+00	(-1.29039104961235e-02dB,-9.47887311267634e+00°)
1.62181009735893e+00	(-1.34312437430123e-02dB,-9.70117931620512e+00°)
1.65958690743756e+00	(-1.39865628500140e-02dB,-9.92877033593608e+00°)
1.69824365246174e+00	(-1.45714877272729e-02dB,-1.01617766887096e+01°)
1.73780082874937e+00	(-1.51877434613275e-02dB,-1.04003324362780e+01°)
1.77827941003892e+00	(-1.58371680214268e-02dB,-1.06445753008060e+01°)
1.81970085860998e+00	(-1.65217205892988e-02dB,-1.08946467850239e+01°)
1.86208713666287e+00	(-1.72434905659326e-02dB,-1.11506922972337e+01°)
1.90546071796325e+00	(-1.80047073134543e-02dB,-1.14128612813719e+01°)
1.94984459975804e+00	(-1.88077506965920e-02dB,-1.16813073523400e+01°)
1.99526231496888e+00	(-1.96551624915314e-02dB,-1.19561884368147e+01°)
2.04173794466953e+00	(-2.05496587383782e-02dB,-1.22376669197542e+01°)
2.08929613085404e+00	(-2.14941431187226e-02dB,-1.25259097968181e+01°)
2.13796208950223e+00	(-2.24917214471701e-02dB,-1.28210888329183e+01°)
2.18776162394955e+00	(-2.35457173738886e-02dB,-1.31233807271167e+01°)
2.23872113856834e+00	(-2.46596894026811e-02dB,-1.34329672840832e+01°)
2.29086765276777e+00	(-2.58374493400397e-02dB,-1.37500355923180e+01°)
2.34422881531992e+00	(-2.70830822978844e-02dB,-1.40747782093378e+01°)
2.39883291901949e+00	(-2.84009683862685e-02dB,-1.44073933540085e+01°)
2.45470891568503e+00	(-2.97958062412494e-02dB,-1.47480851061943e+01°)
2.51188643150958e+00	(-3.12726385475252e-02dB,-1.50970636138699e+01°)
2.57039578276886e+00	(-3.28368797277401e-02dB,-1.54545453078164e+01°)
2.63026799189538e+00	(-3.44943459851034e-02dB,-1.58207531239896e+01°)
2.69153480392691e+00	(-3.62512879018189e-02dB,-1.61959167336085e+01°)
2.75422870333816e+00	(-3.81144258117363e-02dB,-1.65802727809652e+01°)
2.81838293126445e+00	(-4.00909881841095e-02dB,-1.69740651288975e+01°)
2.88403150312660e+00	(-4.21887532743530e-02dB,-1.73775451117979e+01°)
2.95120922666638e+00	(-4.44160943172327e-02dB,-1.77909717959534e+01°)
3.01995172040201e+00	(-4.67820285606581e-02dB,-1.82146122469107e+01°)
3.09029543251359e+00	(-4.92962704602775e-02dB,-1.86487418034539e+01°)
3.16227766016837e+00	(-5.19692893790897e-02dB,-1.90936443576493e+01°)
3.23593656929628e+00	(-5.48123721627313e-02dB,-1.95496126402609e+01°)
3.31131121482591e+00	(-5.78376909863873e-02dB,-2.00169485106665e+01°)
3.38844156139202e+00	(-6.10583768975678e-02dB,-2.04959632502001e+01°)
3.46736850452531e+00	(-6.44885995078001e-02dB,-2.09869778576176e+01°)
3.54813389233575e+00	(-6.81436533150740e-02dB,-2.14903233451137e+01°)
3.63078054770101e+00	(-7.20400511686556e-02dB,-2.20063410330167e+01°)
3.71535229097172e+00	(-7.61956254185795e-02dB,-2.25353828409408e+01°)
3.80189396320560e+00	(-8.06296373209753e-02dB,-2.30778115727799e+01°)
3.89045144994280e+00	(-8.53628952990084e-02dB,-2.36340011924862e+01°)
3.98107170553496e+00	(-9.04178826872740e-02dB,-2.42043370870660e+01°)
4.07380277804112e+00	(-9.58188956113566e-02dB,-2.47892163126636e+01°)
4.16869383470335e+00	(-1.01592191675688e-01dB,-2.53890478189625e+01°)
4.26579518801592e+00	(-1.07766150150039e-01dB,-2.60042526464194e+01°)
4.36515832240165e+00	(-1.14371444354604e-01dB,-2.66352640900525e+01°)
4.46683592150962e+00	(-1.21441226946523e-01dB,-2.72825278226136e+01°)
4.57088189614874e+00	(-1.29011328802267e-01dB,-2.79465019690013e+01°)
4.67735141287197e+00	(-1.37120472171068e-01dB,-2.86276571226814e+01°)
4.78630092322637e+00	(-1.45810498737632e-01dB,-2.93264762937033e+01°)
4.89778819368445e+00	(-1.55126613177904e-01dB,-3.00434547766006e+01°)
5.01187233627271e+00	(-1.65117642714567e-01dB,-3.07790999250645e+01°)
5.12861383991364e+00	(-1.75836313074027e-01dB,-3.15339308187670e+01°)
5.24807460249771e+00	(-1.87339541109509e-01dB,-3.23084778060959e+01°)
5.37031796370252e+00	(-1.99688744181253e-01dB,-3.31032819048611e+01°)
5.49540873857623e+00	(-2.12950166165526e-01dB,-3.39188940412418e+01°)
5.62341325190348e+00	(-2.27195219696350e-01dB,-3.47558741054112e+01°)
5.75439937337156e+00	(-2.42500843915867e-01dB,-3.56147898004025e+01°)
5.88843655355588e+00	(-2.58949876618234e-01dB,-3.64962152589381e+01°)
6.02559586074356e+00	(-2.76631439205572e-01dB,-3.74007294011618e+01°)
6.16595001861481e+00	(-2.95641332328565e-01dB,-3.83289140045726e+01°)
6.30957344480192e+00	(-3.16082439448128e-01dB,-3.92813514560433e+01°)
6.45654229034654e+00	(-3.38065134825075e-01dB,-4.02586221547130e+01°)
6.60693448007594e+00	(-3.61707691612441e-01dB,-4.12613015339038e+01°)
6.76082975391980e+00	(-3.87136684791436e-01dB,-4.22899566701673e+01°)
6.91830970918935e+00	(-4.14487382652546e-01dB,-4.33451424482933e+01°)
7.07945784384136e+00	(-4.43904119385376e-01dB,-4.44273972527992e+01°)
7.24435960074988e+00	(-4.75540640113745e-01dB,-4.55372381592776e+01°)
7.41310241300916e+00	(-5.09560408408176e-01dB,-4.66751556032633e+01°)
7.58577575029182e+00	(-5.46136864959102e-01dB,-4.78416075102005e+01°)
7.76247116628690e+00	(-5.85453624726745e-01dB,-4.90370128779384e+01°)
7.94328234724279e+00	(-6.27704598550385e-01dB,-5.02617448131644e+01°)
8.12830516164097e+00	(-6.73094023956314e-01dB,-5.15161230355315e+01°)
8.31763771102669e+00	(-7.21836388823293e-01dB,-5.28004058781142e+01°)
8.51138038202374e+00	(-7.74156230734698e-01dB,-5.41147818303189e+01°)
8.70963589956078e+00	(-8.30287794367407e-01dB,-5.54593606894751e+01°)
8.91250938133743e+00	(-8.90474529250112e-01dB,-5.68341644098888e+01°)
9.12010839355907e+00	(-9.54968410789163e-01dB,-5.82391177628102e+01°)
9.33254300796988e+00	(-1.02402906872969e+00dB,-5.96740389470340e+01°)
9.54992586021433e+00	(-1.09792270931327e+00dB,-6.11386303169152e+01°)
9.77237220955808e+00	(-1.17692082041068e+00dB,-6.26324694214238e+01°)
9.99999999999997e+00	(-1.26129865293136e+00dB,-6.41550005731647e+01°)
1.02329299228075e+01	(-1.35133347687286e+00dB,-6.57055271885203e+01°)
1.04712854805090e+01	(-1.44730261646214e+00dB,-6.72832051574639e+01°)
1.07151930523760e+01	(-1.54948127587132e+00dB,-6.88870375122827e+01°)
1.09647819614318e+01	(-1.65814017480454e+00dB,-7.05158706665327e+01°)
1.12201845430196e+01	(-1.77354302160313e+00dB,-7.21683924872614e+01°)
1.14815362149688e+01	(-1.89594386007293e+00dB,-7.38431324434080e+01°)
1.17489755493953e+01	(-2.02558433458767e+00dB,-7.55384640403222e+01°)
1.20226443461741e+01	(-2.16269092569292e+00dB,-7.72526097042180e+01°)
1.23026877081238e+01	(-2.30747221491324e+00dB,-7.89836482215652e+01°)
1.25892541179416e+01	(-2.46011624223930e+00dB,-8.07295247683712e+01°)
1.28824955169313e+01	(-2.62078802236816e+00dB,-8.24880634853807e+01°)
1.31825673855640e+01	(-2.78962728580239e+00dB,-8.42569824707734e+01°)
1.34896288259165e+01	(-2.96674650812611e+00dB,-8.60339109760277e+01°)
1.38038426460288e+01	(-3.15222928508109e+00dB,-8.78164085078651e+01°)
1.41253754462275e+01	(-3.34612910256625e+00dB,-8.96019854643998e+01°)
1.44543977074592e+01	(-3.54846853968844e+00dB,-9.13881248713536e+01°)
1.47910838816820e+01	(-3.75923892999319e+00dB,-9.31723047384870e+01°)
1.51356124843620e+01	(-3.97840049165726e+00dB,-9.49520205302299e+01°)
1.54881661891248e+01	(-4.20588292249251e+00dB,-9.67248072396477e+01°)
1.58489319246111e+01	(-4.44158644090389e+00dB,-9.84882605716786e+01°)
1.62181009735892e+01	(-4.68538324025597e+00dB,-1.00240056778882e+02°)
1.65958690743755e+01	(-4.93711931214242e+00dB,-1.01977970748261e+02°)
1.69824365246174e+01	(-5.19661658439127e+00dB,-1.03699892007479e+02°)
1.73780082874937e+01	(-5.46367531266826e+00dB,-1.05403838398567e+02°)
1.77827941003892e+01	(-5.73807666045750e+00dB,-1.07087967252344e+02°)
1.81970085860998e+01	(-6.01958540099623e+00dB,-1.08750583982371e+02°)
1.86208713666286e+01	(-6.30795267623513e+00dB,-1.10390148099144e+02°)
1.90546071796324e+01	(-6.60291875175361e+00dB,-1.12005276719576e+02°)
1.94984459975804e+01	(-6.90421571233968e+00dB,-1.13594745710863e+02°)
1.99526231496887e+01	(-7.21157005014810e+00dB,-1.15157488659752e+02°)
2.04173794466952e+01	(-7.52470510545836e+00dB,-1.16692593897026e+02°)
2.08929613085403e+01	(-7.84334332857414e+00dB,-1.18199299832831e+02°)
2.13796208950222e+01	(-8.16720833989431e+00dB,-1.19676988871830e+02°)
2.18776162394954e+01	(-8.49602677327393e+00dB,-1.21125180179535e+02°)
2.23872113856833e+01	(-8.82952989519858e+00dB,-1.22543521564076e+02°)
2.29086765276776e+01	(-9.16745499881845e+00dB,-1.23931780723012e+02°)
2.34422881531991e+01	(-9.50954657741361e+00dB,-1.25289836084507e+02°)
2.39883291901948e+01	(-9.85555728634571e+00dB,-1.26617667448046e+02°)
2.45470891568502e+01	(-1.02052487060101e+01dB,-1.27915346603538e+02°)
2.51188643150957e+01	(-1.05583919207954e+01dB,-1.29183028080543e+02°)
2.57039578276885e+01	(-1.09147679306812e+01dB,-1.30420940152626e+02°)
2.63026799189537e+01	(-1.12741679129677e+01dB,-1.31629376196382e+02°)
2.69153480392690e+01	(-1.16363933518601e+01dB,-1.32808686481121e+02°)
2.75422870333815e+01	(-1.20012560533409e+01dB,-1.33959270443985e+02°)
2.81838293126444e+01	(-1.23685780620782e+01dB,-1.35081569486601e+02°)
2.88403150312659e+01	(-1.27381914961371e+01dB,-1.36176060313335e+02°)
2.95120922666637e+01	(-1.31099383140812e+01dB,-1.37243248817758e+02°)
3.01995172040200e+01	(-1.34836700277487e+01dB,-1.38283664512930e+02°)
3.09029543251358e+01	(-1.38592473726313e+01dB,-1.39297855492316e+02°)
3.16227766016837e+01	(-1.42365399464195e+01dB,-1.40286383901424e+02°)
3.23593656929627e+01	(-1.46154258249521e+01dB,-1.41249821895262e+02°)
3.31131121482590e+01	(-1.49957911635422e+01dB,-1.42188748053246e+02°)
3.38844156139201e+01	(-1.53775297904738e+01dB,-1.43103744221008e+02°)
3.46736850452530e+01	(-1.57605427983795e+01dB,-1.43995392747440e+02°)
3.54813389233574e+01	(-1.61447381382261e+01dB,-1.44864274085004e+02°)
3.63078054770100e+01	(-1.65300302197610e+01dB,-1.45710964721764e+02°)
3.71535229097171e+01	(-1.69163395214956e+01dB,-1.46536035414480e+02°)
3.80189396320559e+01	(-1.73035922126248e+01dB,-1.47340049693397e+02°)
3.89045144994279e+01	(-1.76917197886973e+01dB,-1.48123562610923e+02°)
3.98107170553495e+01	(-1.80806587223510e+01dB,-1.48887119708107e+02°)
4.07380277804111e+01	(-1.84703501300010e+01dB,-1.49631256174648e+02°)
4.16869383470333e+01	(-1.88607394550175e+01dB,-1.50356496180056e+02°)
4.26579518801591e+01	(-1.92517761676333e+01dB,-1.51063352355403e+02°)
4.36515832240164e+01	(-1.96434134815811e+01dB,-1.51752325406946e+02°)
4.46683592150961e+01	(-2.00356080872707e+01dB,-1.52423903844632e+02°)
4.57088189614873e+01	(-2.04283199011582e+01dB,-1.53078563810158e+02°)
4.67735141287196e+01	(-2.08215118308463e+01dB,-1.53716768990803e+02°)
4.78630092322636e+01	(-2.12151495553617e+01dB,-1.54338970606731e+02°)
4.89778819368444e+01	(-2.16092013199931e+01dB,-1.54945607460760e+02°)
5.01187233627270e+01	(-2.20036377450301e+01dB,-1.55537106040878e+02°)
5.12861383991362e+01	(-2.23984316477142e+01dB,-1.56113880666872e+02°)
5.24807460249770e+01	(-2.27935578767021e+01dB,-1.56676333673480e+02°)
5.37031796370250e+01	(-2.31889931583388e+01dB,-1.57224855623418e+02°)
5.49540873857622e+01	(-2.35847159540448e+01dB,-1.57759825544426e+02°)
5.62341325190346e+01	(-2.39807063281361e+01dB,-1.58281611185280e+02°)
5.75439937337154e+01	(-2.43769458254157e+01dB,-1.58790569286348e+02°)
5.88843655355586e+01	(-2.47734173578968e+01dB,-1.59287045860891e+02°)
6.02559586074355e+01	(-2.51701051000460e+01dB,-1.59771376483820e+02°)
6.16595001861479e+01	(-2.55669943919618e+01dB,-1.60243886585113e+02°)
6.30957344480190e+01	(-2.59640716499340e+01dB,-1.60704891745502e+02°)
6.45654229034652e+01	(-2.63613242838577e+01dB,-1.61154697992398e+02°)
6.60693448007593e+01	(-2.67587406210077e+01dB,-1.61593602094365e+02°)
6.76082975391978e+01	(-2.71563098357070e+01dB,-1.62021891852710e+02°)
6.91830970918933e+01	(-2.75540218844522e+01dB,-1.62439846389036e+02°)
7.07945784384134e+01	(-2.79518674460883e+01dB,-1.62847736427777e+02°)
7.24435960074986e+01	(-2.83498378666501e+01dB,-1.63245824572968e+02°)
7.41310241300914e+01	(-2.87479251085150e+01dB,-1.63634365578620e+02°)
7.58577575029180e+01	(-2.91461217035361e+01dB,-1.64013606612247e+02°)
7.76247116628688e+01	(-2.95444207098479e+01dB,-1.64383787511175e+02°)
7.94328234724277e+01	(-2.99428156720589e+01dB,-1.64745141031410e+02°)
8.12830516164095e+01	(-3.03413005845679e+01dB,-1.65097893088880e+02°)
8.31763771102667e+01	(-3.07398698577565e+01dB,-1.65442262992978e+02°)
8.51138038202372e+01	(-3.11385182868338e+01dB,-1.65778463672380e+02°)
8.70963589956076e+01	(-3.15372410231219e+01dB,-1.66106701893160e+02°)
8.91250938133741e+01	(-3.19360335475897e+01dB,-1.66427178469287e+02°)
9.12010839355905e+01	(-3.23348916464568e+01dB,-1.66740088465591e+02°)
9.33254300796986e+01	(-3.27338113887012e+01dB,-1.67045621393351e+02°)
9.54992586021431e+01	(-3.31327891053208e+01dB,-1.67343961398662e+02°)
9.77237220955805e+01	(-3.35318213702082e+01dB,-1.67635287443750e+02°)
9.99999999999995e+01	(-3.39309049825094e+01dB,-1.67919773481433e+02°)
1.02329299228075e+02	(-3.43300369503481e+01dB,-1.68197588622942e+02°)
1.04712854805089e+02	(-3.47292144758077e+01dB,-1.68468897299281e+02°)
1.07151930523760e+02	(-3.51284349410681e+01dB,-1.68733859416382e+02°)
1.09647819614318e+02	(-3.55276958956072e+01dB,-1.68992630504234e+02°)
1.12201845430196e+02	(-3.59269950443811e+01dB,-1.69245361860229e+02°)
1.14815362149688e+02	(-3.63263302369054e+01dB,-1.69492200686931e+02°)
1.17489755493952e+02	(-3.67256994571648e+01dB,-1.69733290224483e+02°)
1.20226443461741e+02	(-3.71251008142862e+01dB,-1.69968769877870e+02°)
1.23026877081237e+02	(-3.75245325339148e+01dB,-1.70198775339237e+02°)
1.25892541179416e+02	(-3.79239929502357e+01dB,-1.70423438705465e+02°)
1.28824955169313e+02	(-3.83234804985921e+01dB,-1.70642888591211e+02°)
1.31825673855640e+02	(-3.87229937086513e+01dB,-1.70857250237595e+02°)
1.34896288259165e+02	(-3.91225311980765e+01dB,-1.71066645616713e+02°)
1.38038426460288e+02	(-3.95220916666636e+01dB,-1.71271193532178e+02°)
1.41253754462275e+02	(-3.99216738909075e+01dB,-1.71471009715832e+02°)
1.44543977074592e+02	(-4.03212767189636e+01dB,-1.71666206920816e+02°)
1.47910838816820e+02	(-4.07208990659743e+01dB,-1.71856895011151e+02°)
1.51356124843620e+02	(-4.11205399097316e+01dB,-1.72043181047977e+02°)
1.54881661891247e+02	(-4.15201982866503e+01dB,-1.72225169372616e+02°)
1.58489319246110e+02	(-4.19198732880272e+01dB,-1.72402961686564e+02°)
1.62181009735892e+02	(-4.23195640565656e+01dB,-1.72576657128594e+02°)
1.65958690743755e+02	(-4.27192697831431e+01dB,-1.72746352349052e+02°)
1.69824365246173e+02	(-4.31189897038053e+01dB,-1.72912141581502e+02°)
1.73780082874936e+02	(-4.35187230969683e+01dB,-1.73074116711820e+02°)
1.77827941003891e+02	(-4.39184692808135e+01dB,-1.73232367344854e+02°)
1.81970085860997e+02	(-4.43182276108610e+01dB,-1.73386980868761e+02°)
1.86208713666286e+02	(-4.47179974777079e+01dB,-1.73538042517109e+02°)
1.90546071796323e+02	(-4.51177783049189e+01dB,-1.73685635428858e+02°)
1.94984459975803e+02	(-4.55175695470590e+01dB,-1.73829840706299e+02°)
1.99526231496887e+02	(-4.59173706878563e+01dB,-1.73970737471048e+02°)
2.04173794466952e+02	(-4.63171812384871e+01dB,-1.74108402918170e+02°)
2.08929613085403e+02	(-4.67170007359726e+01dB,-1.74242912368518e+02°)
2.13796208950222e+02	(-4.71168287416808e+01dB,-1.74374339319368e+02°)
2.18776162394954e+02	(-4.75166648399246e+01dB,-1.74502755493404e+02°)
2.23872113856832e+02	(-4.79165086366507e+01dB,-1.74628230886149e+02°)
2.29086765276776e+02	(-4.83163597582110e+01dB,-1.74750833811878e+02°)
2.34422881531991e+02	(-4.87162178502128e+01dB,-1.74870630948102e+02°)
2.39883291901947e+02	(-4.91160825764402e+01dB,-1.74987687378658e+02°)
2.45470891568501e+02	(-4.95159536178431e+01dB,-1.75102066635489e+02°)
2.51188643150956e+02	(-4.99158306715894e+01dB,-1.75213830739136e+02°)
2.57039578276885e+02	(-5.03157134501740e+01dB,-1.75323040238027e+02°)
2.63026799189536e+02	(-5.07156016805834e+01dB,-1.75429754246580e+02°)
2.69153480392690e+02	(-5.11154951035102e+01dB,-1.75534030482193e+02°)
2.75422870333815e+02	(-5.15153934726146e+01dB,-1.75635925301153e+02°)
2.81838293126443e+02	(-5.19152965538307e+01dB,-1.75735493733506e+02°)
2.88403150312659e+02	(-5.23152041247133e+01dB,-1.75832789516932e+02°)
2.95120922666637e+02	(-5.27151159738230e+01dB,-1.75927865129671e+02°)
3.01995172040200e+02	(-5.31150319001475e+01dB,-1.76020771822518e+02°)
3.09029543251357e+02	(-5.35149517125568e+01dB,-1.76111559649946e+02°)
3.16227766016836e+02	(-5.39148752292885e+01dB,-1.76200277500378e+02°)
3.23593656929626e+02	(-5.43148022774643e+01dB,-1.76286973125640e+02°)
3.31131121482589e+02	(-5.47147326926325e+01dB,-1.76371693169634e+02°)
3.38844156139200e+02	(-5.51146663183371e+01dB,-1.76454483196261e+02°)
3.46736850452529e+02	(-5.55146030057107e+01dB,-1.76535387716613e+02°)
3.54813389233573e+02	(-5.59145426130905e+01dB,-1.76614450215478e+02°)
3.63078054770099e+02	(-5.63144850056553e+01dB,-1.76691713177169e+02°)
3.71535229097170e+02	(-5.67144300550824e+01dB,-1.76767218110726e+02°)
3.80189396320558e+02	(-5.71143776392237e+01dB,-1.76841005574485e+02°)
3.89045144994278e+02	(-5.75143276417989e+01dB,-1.76913115200070e+02°)
3.98107170553494e+02	(-5.79142799521060e+01dB,-1.76983585715816e+02°)
4.07380277804110e+02	(-5.83142344647467e+01dB,-1.77052454969646e+02°)
4.16869383470332e+02	(-5.87141910793669e+01dB,-1.77119759951435e+02°)
4.26579518801589e+02	(-5.91141497004113e+01dB,-1.77185536814872e+02°)
4.36515832240163e+02	(-5.95141102368904e+01dB,-1.77249820898849e+02°)
4.46683592150960e+02	(-5.99140726021606e+01dB,-1.77312646748402e+02°)
4.57088189614872e+02	(-6.03140367137151e+01dB,-1.77374048135215e+02°)
4.67735141287195e+02	(-6.07140024929862e+01dB,-1.77434058077715e+02°)
4.78630092322635e+02	(-6.11139698651583e+01dB,-1.77492708860784e+02°)
4.89778819368442e+02	(-6.15139387589898e+01dB,-1.77550032055095e+02°)
5.01187233627268e+02	(-6.19139091066450e+01dB,-1.77606058536105e+02°)
5.12861383991361e+02	(-6.23138808435341e+01dB,-1.77660818502722e+02°)
5.24807460249769e+02	(-6.27138539081624e+01dB,-1.77714341495666e+02°)
5.37031796370249e+02	(-6.31138282419861e+01dB,-1.77766656415541e+02°)
5.49540873857620e+02	(-6.35138037892762e+01dB,-1.77817791540650e+02°)
5.62341325190345e+02	(-6.39137804969898e+01dB,-1.77867774544562e+02°)
5.75439937337152e+02	(-6.43137583146468e+01dB,-1.77916632513461e+02°)
5.88843655355584e+02	(-6.47137371942143e+01dB,-1.77964391963296e+02°)
6.02559586074353e+02	(-6.51137170899958e+01dB,-1.78011078856752e+02°)
6.16595001861477e+02	(-6.55136979585269e+01dB,-1.78056718620070e+02°)
6.30957344480188e+02	(-6.59136797584757e+01dB,-1.78101336159736e+02°)
6.45654229034650e+02	(-6.63136624505488e+01dB,-1.78144955879059e+02°)
6.60693448007591e+02	(-6.67136459974019e+01dB,-1.78187601694679e+02°)
6.76082975391976e+02	(-6.71136303635552e+01dB,-1.78229297053007e+02°)
6.91830970918931e+02	(-6.75136155153126e+01dB,-1.78270064946643e+02°)
