Freq.	V(vout)
1.00000000000000e+000	(-1.38746763918576e-004dB,-4.21263650815947e-002°)
1.02329299228075e+000	(-1.38488578725766e-004dB,-4.31076156424094e-002°)
1.04712854805090e+000	(-1.38218225639495e-004dB,-4.41117225696778e-002°)
1.07151930523761e+000	(-1.37935131206750e-004dB,-4.51392182640565e-002°)
1.09647819614318e+000	(-1.37638694945084e-004dB,-4.61906475279423e-002°)
1.12201845430196e+000	(-1.37328288070663e-004dB,-4.72665678543835e-002°)
1.14815362149688e+000	(-1.37003252170377e-004dB,-4.83675497227248e-002°)
1.17489755493953e+000	(-1.36662897807423e-004dB,-4.94941769011409e-002°)
1.20226443461741e+000	(-1.36306503035263e-004dB,-5.06470467562204e-002°)
1.23026877081238e+000	(-1.35933311889418e-004dB,-5.18267705697632e-002°)
1.25892541179417e+000	(-1.35542532802108e-004dB,-5.30339738629628e-002°)
1.28824955169313e+000	(-1.35133336848134e-004dB,-5.42692967281413e-002°)
1.31825673855641e+000	(-1.34704856088169e-004dB,-5.55333941682173e-002°)
1.34896288259165e+000	(-1.34256181657453e-004dB,-5.68269364440848e-002°)
1.38038426460288e+000	(-1.33786361853537e-004dB,-5.81506094300879e-002°)
1.41253754462275e+000	(-1.33294400117948e-004dB,-5.95051149777821e-002°)
1.44543977074593e+000	(-1.32779252949389e-004dB,-6.08911712881728e-002°)
1.47910838816821e+000	(-1.32239827637573e-004dB,-6.23095132926305e-002°)
1.51356124843621e+000	(-1.31674980006711e-004dB,-6.37608930426850e-002°)
1.54881661891248e+000	(-1.31083511914057e-004dB,-6.52460801089068e-002°)
1.58489319246111e+000	(-1.30464168802458e-004dB,-6.67658619890849e-002°)
1.62181009735893e+000	(-1.29815636944327e-004dB,-6.83210445259215e-002°)
1.65958690743756e+000	(-1.29136540728050e-004dB,-6.99124523344642e-002°)
1.69824365246174e+000	(-1.28425439688843e-004dB,-7.15409292395017e-002°)
1.73780082874937e+000	(-1.27680825500091e-004dB,-7.32073387231606e-002°)
1.77827941003892e+000	(-1.26901118727453e-004dB,-7.49125643829339e-002°)
1.81970085860998e+000	(-1.26084665508730e-004dB,-7.66575104003927e-002°)
1.86208713666287e+000	(-1.25229734034120e-004dB,-7.84431020208265e-002°)
1.90546071796325e+000	(-1.24334510884726e-004dB,-8.02702860440658e-002°)
1.94984459975804e+000	(-1.23397097180136e-004dB,-8.21400313267561e-002°)
1.99526231496888e+000	(-1.22415504522539e-004dB,-8.40533292963389e-002°)
2.04173794466953e+000	(-1.21387650839597e-004dB,-8.60111944770273e-002°)
2.08929613085404e+000	(-1.20311355907174e-004dB,-8.80146650280438e-002°)
2.13796208950223e+000	(-1.19184336769856e-004dB,-9.00648032944166e-002°)
2.18776162394955e+000	(-1.18004202854836e-004dB,-9.21626963706230e-002°)
2.23872113856834e+000	(-1.16768450952730e-004dB,-9.43094566773830e-002°)
2.29086765276777e+000	(-1.15474459869584e-004dB,-9.65062225519080e-002°)
2.34422881531992e+000	(-1.14119484863848e-004dB,-9.87541588519244e-002°)
2.39883291901949e+000	(-1.12700651869295e-004dB,-1.01054457573789e-001°)
2.45470891568503e+000	(-1.11214951339954e-004dB,-1.03408338485031e-001°)
2.51188643150958e+000	(-1.09659231919548e-004dB,-1.05817049771654e-001°)
2.57039578276886e+000	(-1.08030193711748e-004dB,-1.08281868700550e-001°)
2.63026799189538e+000	(-1.06324381313222e-004dB,-1.10804102297372e-001°)
2.69153480392691e+000	(-1.04538176464852e-004dB,-1.13385088040234e-001°)
2.75422870333816e+000	(-1.02667790389587e-004dB,-1.16026194569606e-001°)
2.81838293126445e+000	(-1.00709255757142e-004dB,-1.18728822414789e-001°)
2.88403150312660e+000	(-9.86584182485530e-005dB,-1.21494404737346e-001°)
2.95120922666638e+000	(-9.65109277630184e-005dB,-1.24324408091908e-001°)
3.01995172040201e+000	(-9.42622291976058e-005dB,-1.27220333204740e-001°)
3.09029543251359e+000	(-9.19075527593237e-005dB,-1.30183715770507e-001°)
3.16227766016837e+000	(-8.94419038577842e-005dB,-1.33216127267644e-001°)
3.23593656929628e+000	(-8.68600525389263e-005dB,-1.36319175792793e-001°)
3.31131121482591e+000	(-8.41565223566234e-005dB,-1.39494506914728e-001°)
3.38844156139202e+000	(-8.13255787506525e-005dB,-1.42743804548253e-001°)
3.46736850452531e+000	(-7.83612169271778e-005dB,-1.46068791848525e-001°)
3.54813389233575e+000	(-7.52571490758937e-005dB,-1.49471232126293e-001°)
3.63078054770101e+000	(-7.20067910627036e-005dB,-1.52952929784535e-001°)
3.71535229097172e+000	(-6.86032484484758e-005dB,-1.56515731277014e-001°)
3.80189396320560e+000	(-6.50393018695714e-005dB,-1.60161526089257e-001°)
3.89045144994280e+000	(-6.13073917271215e-005dB,-1.63892247742489e-001°)
3.98107170553496e+000	(-5.73996021455338e-005dB,-1.67709874821066e-001°)
4.07380277804112e+000	(-5.33076441963895e-005dB,-1.71616432023970e-001°)
4.16869383470335e+000	(-4.90228382903550e-005dB,-1.75613991240916e-001°)
4.26579518801592e+000	(-4.45360957930617e-005dB,-1.79704672653670e-001°)
4.36515832240165e+000	(-3.98378997434731e-005dB,-1.83890645863175e-001°)
4.46683592150962e+000	(-3.49182846371593e-005dB,-1.88174131043090e-001°)
4.57088189614874e+000	(-2.97668153449028e-005dB,-1.92557400120364e-001°)
4.67735141287197e+000	(-2.43725649053377e-005dB,-1.97042777983506e-001°)
4.78630092322637e+000	(-1.87240914279186e-005dB,-2.01632643719192e-001°)
4.89778819368445e+000	(-1.28094137600632e-005dB,-2.06329431877884e-001°)
5.01187233627271e+000	(-6.61598608534457e-006dB,-2.11135633769169e-001°)
5.12861383991364e+000	(-1.30671357309561e-007dB,-2.16053798787505e-001°)
5.24807460249771e+000	(6.66028663642480e-006dB,-2.21086535769111e-001°)
5.37031796370252e+000	(1.37712923849446e-005dB,-2.26236514380746e-001°)
5.49540873857623e+000	(2.12174292539899e-005dB,-2.31506466541135e-001°)
5.62341325190348e+000	(2.90144914670098e-005dB,-2.36899187875831e-001°)
5.75439937337156e+000	(3.71790175974273e-005dB,-2.42417539206300e-001°)
5.88843655355588e+000	(4.57283256617162e-005dB,-2.48064448074072e-001°)
6.02559586074356e+000	(5.46805498257315e-005dB,-2.53842910300785e-001°)
6.16595001861481e+000	(6.40546789286314e-005dB,-2.59755991584991e-001°)
6.30957344480192e+000	(7.38705966757744e-005dB,-2.65806829136614e-001°)
6.45654229034654e+000	(8.41491239035580e-005dB,-2.71998633349961e-001°)
6.60693448007594e+000	(9.49120626556989e-005dB,-2.78334689516237e-001°)
6.76082975391980e+000	(1.06182242510540e-004dB,-2.84818359576494e-001°)
6.91830970918935e+000	(1.17983568943221e-004dB,-2.91453083916023e-001°)
7.07945784384136e+000	(1.30341074060038e-004dB,-2.98242383201177e-001°)
7.24435960074988e+000	(1.43280969681678e-004dB,-3.05189860259674e-001°)
7.41310241300916e+000	(1.56830702964096e-004dB,-3.12299202005435e-001°)
7.58577575029182e+000	(1.71019014581911e-004dB,-3.19574181409045e-001°)
7.76247116628690e+000	(1.85875999715107e-004dB,-3.27018659514955e-001°)
7.94328234724279e+000	(2.01433171885092e-004dB,-3.34636587506596e-001°)
8.12830516164097e+000	(2.17723529774778e-004dB,-3.42432008820543e-001°)
8.31763771102669e+000	(2.34781627250307e-004dB,-3.50409061310990e-001°)
8.51138038202374e+000	(2.52643646638049e-004dB,-3.58571979465747e-001°)
8.70963589956078e+000	(2.71347475464765e-004dB,-3.66925096675051e-001°)
8.91250938133743e+000	(2.90932786828287e-004dB,-3.75472847554511e-001°)
9.12010839355907e+000	(3.11441123571802e-004dB,-3.84219770323534e-001°)
9.33254300796988e+000	(3.32915986328722e-004dB,-3.93170509240632e-001°)
9.54992586021433e+000	(3.55402925883067e-004dB,-4.02329817097011e-001°)
9.77237220955808e+000	(3.78949639702000e-004dB,-4.11702557769962e-001°)
9.99999999999997e+000	(4.03606073175981e-004dB,-4.21293708837526e-001°)
1.02329299228075e+001	(4.29424525511773e-004dB,-4.31108364255997e-001°)
1.04712854805090e+001	(4.56459760665098e-004dB,-4.41151737101892e-001°)
1.07151930523760e+001	(4.84769123529975e-004dB,-4.51429162380006e-001°)
1.09647819614318e+001	(5.14412661543790e-004dB,-4.61946099899265e-001°)
1.12201845430196e+001	(5.45453252036785e-004dB,-4.72708137218135e-001°)
1.14815362149688e+001	(5.77956735650689e-004dB,-4.83720992661374e-001°)
1.17489755493953e+001	(6.11992055940876e-004dB,-4.94990518410001e-001°)
1.20226443461741e+001	(6.47631405629227e-004dB,-5.06522703666383e-001°)
1.23026877081238e+001	(6.84950379720190e-004dB,-5.18323677896426e-001°)
1.25892541179416e+001	(7.24028135871687e-004dB,-5.30399714150908e-001°)
1.28824955169313e+001	(7.64947562233037e-004dB,-5.42757232468053e-001°)
1.31825673855640e+001	(8.07795453303210e-004dB,-5.55402803359512e-001°)
1.34896288259165e+001	(8.52662694005726e-004dB,-5.68343151381994e-001°)
1.38038426460288e+001	(8.99644452469465e-004dB,-5.81585158796874e-001°)
1.41253754462275e+001	(9.48840381840451e-004dB,-5.95135869320148e-001°)
1.44543977074592e+001	(1.00035483170205e-003dB,-6.09002491965219e-001°)
1.47910838816820e+001	(1.05429706938181e-003dB,-6.23192404981063e-001°)
1.51356124843620e+001	(1.11078151168511e-003dB,-6.37713159888425e-001°)
1.54881661891248e+001	(1.16992796759165e-003dB,-6.52572485616773e-001°)
1.58489319246111e+001	(1.23186189235957e-003dB,-6.67778292744843e-001°)
1.62181009735892e+001	(1.29671465363422e-003dB,-6.83338677847688e-001°)
1.65958690743755e+001	(1.36462381004992e-003dB,-6.99261927953319e-001°)
1.69824365246174e+001	(1.43573340298609e-003dB,-7.15556525112018e-001°)
1.73780082874937e+001	(1.51019426210596e-003dB,-7.32231151081623e-001°)
1.77827941003892e+001	(1.58816432519724e-003dB,-7.49294692132192e-001°)
1.81970085860998e+001	(1.66980897320587e-003dB,-7.66756243973487e-001°)
1.86208713666286e+001	(1.75530138095956e-003dB,-7.84625116809013e-001°)
1.90546071796324e+001	(1.84482288448418e-003dB,-8.02910840520328e-001°)
1.94984459975804e+001	(1.93856336556621e-003dB,-8.21623169985600e-001°)
1.99526231496887e+001	(2.03672165449324e-003dB,-8.40772090536503e-001°)
2.04173794466952e+001	(2.13950595174706e-003dB,-8.60367823557694e-001°)
2.08929613085403e+001	(2.24713426955783e-003dB,-8.80420832233306e-001°)
2.13796208950222e+001	(2.35983489428643e-003dB,-9.00941827445113e-001°)
2.18776162394954e+001	(2.47784687057123e-003dB,-9.21941773827092e-001°)
2.23872113856833e+001	(2.60142050830780e-003dB,-9.43431895981493e-001°)
2.29086765276776e+001	(2.73081791348904e-003dB,-9.65423684861571e-001°)
2.34422881531991e+001	(2.86631354409968e-003dB,-9.87928904326465e-001°)
2.39883291901948e+001	(3.00819479217191e-003dB,-1.01095959787394e+000°)
2.45470891568502e+001	(3.15676259326087e-003dB,-1.03452809555686e+000°)
2.51188643150957e+001	(3.31233206463713e-003dB,-1.05864702108979e+000°)
2.57039578276885e+001	(3.47523317359227e-003dB,-1.08332929915195e+000°)
2.63026799189537e+001	(3.64581143716629e-003dB,-1.10858816289367e+000°)
2.69153480392690e+001	(3.82442865489136e-003dB,-1.13443716165309e+000°)
2.75422870333815e+001	(4.01146367600593e-003dB,-1.16089016889097e+000°)
2.81838293126444e+001	(4.20731320289411e-003dB,-1.18796139035111e+000°)
2.88403150312659e+001	(4.41239263227527e-003dB,-1.21566537245468e+000°)
2.95120922666637e+001	(4.62713693610743e-003dB,-1.24401701093723e+000°)
3.01995172040200e+001	(4.85200158394733e-003dB,-1.27303155973711e+000°)
3.09029543251358e+001	(5.08746350874866e-003dB,-1.30272464014509e+000°)
3.16227766016837e+001	(5.33402211820940e-003dB,-1.33311225022497e+000°)
3.23593656929627e+001	(5.59220035369078e-003dB,-1.36421077451567e+000°)
3.31131121482590e+001	(5.86254579906474e-003dB,-1.39603699402607e+000°)
3.38844156139201e+001	(6.14563184177445e-003dB,-1.42860809653382e+000°)
3.46736850452530e+001	(6.44205888859221e-003dB,-1.46194168720076e+000°)
3.54813389233574e+001	(6.75245563858545e-003dB,-1.49605579951757e+000°)
3.63078054770100e+001	(7.07748041613022e-003dB,-1.53096890659145e+000°)
3.71535229097171e+001	(7.41782256661471e-003dB,-1.56669993279097e+000°)
3.80189396320559e+001	(7.77420391792495e-003dB,-1.60326826576348e+000°)
3.89045144994279e+001	(8.14738031072320e-003dB,-1.64069376884088e+000°)
3.98107170553495e+001	(8.53814320081075e-003dB,-1.67899679385075e+000°)
4.07380277804111e+001	(8.94732133690953e-003dB,-1.71819819435069e+000°)
4.16869383470333e+001	(9.37578251748081e-003dB,-1.75831933930482e+000°)
4.26579518801591e+001	(9.82443543019793e-003dB,-1.79938212722240e+000°)
4.36515832240164e+001	(1.02942315780722e-002dB,-1.84140900077974e+000°)
4.46683592150961e+001	(1.07861672962158e-002dB,-1.88442296194792e+000°)
4.57088189614873e+001	(1.13012858635772e-002dB,-1.92844758765003e+000°)
4.67735141287196e+001	(1.18406797139753e-002dB,-1.97350704597325e+000°)
4.78630092322636e+001	(1.24054927513134e-002dB,-2.01962611296244e+000°)
4.89778819368444e+001	(1.29969227736574e-002dB,-2.06683019002364e+000°)
5.01187233627270e+001	(1.36162240113912e-002dB,-2.11514532196782e+000°)
5.12861383991362e+001	(1.42647097848033e-002dB,-2.16459821572666e+000°)
5.24807460249770e+001	(1.49437552867114e-002dB,-2.21521625977459e+000°)
5.37031796370250e+001	(1.56548004958802e-002dB,-2.26702754429338e+000°)
5.49540873857622e+001	(1.63993532276119e-002dB,-2.32006088211754e+000°)
5.62341325190346e+001	(1.71789923276140e-002dB,-2.37434583050182e+000°)
5.75439937337154e+001	(1.79953710161657e-002dB,-2.42991271375434e+000°)
5.88843655355586e+001	(1.88502203894229e-002dB,-2.48679264678180e+000°)
6.02559586074355e+001	(1.97453530852640e-002dB,-2.54501755959649e+000°)
6.16595001861479e+001	(2.06826671214304e-002dB,-2.60462022283780e+000°)
6.30957344480190e+001	(2.16641499139626e-002dB,-2.66563427436462e+000°)
6.45654229034652e+001	(2.26918824843730e-002dB,-2.72809424697883e+000°)
6.60693448007593e+001	(2.37680438643499e-002dB,-2.79203559734382e+000°)
6.76082975391978e+001	(2.48949157072772e-002dB,-2.85749473616701e+000°)
6.91830970918933e+001	(2.60748871160927e-002dB,-2.92450905971899e+000°)
7.07945784384134e+001	(2.73104596977172e-002dB,-2.99311698276810e+000°)
7.24435960074986e+001	(2.86042528544191e-002dB,-3.06335797301363e+000°)
7.41310241300914e+001	(2.99590093233222e-002dB,-3.13527258710738e+000°)
7.58577575029180e+001	(3.13776009754277e-002dB,-3.20890250835917e+000°)
7.76247116628688e+001	(3.28630348862058e-002dB,-3.28429058622876e+000°)
7.94328234724277e+001	(3.44184596904825e-002dB,-3.36148087771398e+000°)
8.12830516164095e+001	(3.60471722345191e-002dB,-3.44051869075231e+000°)
8.31763771102667e+001	(3.77526245392355e-002dB,-3.52145062976227e+000°)
8.51138038202372e+001	(3.95384310887558e-002dB,-3.60432464345913e+000°)
8.70963589956076e+001	(4.14083764593488e-002dB,-3.68919007509020e+000°)
8.91250938133741e+001	(4.33664233042776e-002dB,-3.77609771524454e+000°)
9.12010839355905e+001	(4.54167207109764e-002dB,-3.86509985740434e+000°)
9.33254300796986e+001	(4.75636129474007e-002dB,-3.95625035641653e+000°)
9.54992586021431e+001	(4.98116486153966e-002dB,-4.04960469007723e+000°)
9.77237220955805e+001	(5.21655902295263e-002dB,-4.14522002403545e+000°)
9.99999999999995e+001	(5.46304242405117e-002dB,-4.24315528023853e+000°)
1.02329299228075e+002	(5.72113715234263e-002dB,-4.34347120915783e+000°)
1.04712854805089e+002	(5.99138983514180e-002dB,-4.44623046605203e+000°)
1.07151930523760e+002	(6.27437278766154e-002dB,-4.55149769154480e+000°)
1.09647819614318e+002	(6.57068521407917e-002dB,-4.65933959681459e+000°)
1.12201845430196e+002	(6.88095446391282e-002dB,-4.76982505371784e+000°)
1.14815362149688e+002	(7.20583734612897e-002dB,-4.88302519019140e+000°)
1.17489755493952e+002	(7.54602150350420e-002dB,-4.99901349130752e+000°)
1.20226443461741e+002	(7.90222684983259e-002dB,-5.11786590638372e+000°)
1.23026877081237e+002	(8.27520707267070e-002dB,-5.23966096258209e+000°)
1.25892541179416e+002	(8.66575120440071e-002dB,-5.36447988546707e+000°)
1.28824955169313e+002	(9.07468526446218e-002dB,-5.49240672702841e+000°)
1.31825673855640e+002	(9.50287397570501e-002dB,-5.62352850171723e+000°)
1.34896288259165e+002	(9.95122255787998e-002dB,-5.75793533108721e+000°)
1.38038426460288e+002	(1.04206786013501e-001dB,-5.89572059768194e+000°)
1.41253754462275e+002	(1.09122340241979e-001dB,-6.03698110886195e+000°)
1.44543977074592e+002	(1.14269271159265e-001dB,-6.18181727132253e+000°)
1.47910838816820e+002	(1.19658446710109e-001dB,-6.33033327711664e+000°)
1.51356124843620e+002	(1.25301242155931e-001dB,-6.48263730206518e+000°)
1.54881661891247e+002	(1.31209563306081e-001dB,-6.63884171751197e+000°)
1.58489319246110e+002	(1.37395870746361e-001dB,-6.79906331646235e+000°)
1.62181009735892e+002	(1.43873205097176e-001dB,-6.96342355523405e+000°)
1.65958690743755e+002	(1.50655213333198e-001dB,-7.13204881184573e+000°)
1.69824365246173e+002	(1.57756176195313e-001dB,-7.30507066247645e+000°)
1.73780082874936e+002	(1.65191036723926e-001dB,-7.48262617744583e+000°)
1.77827941003891e+002	(1.72975429940888e-001dB,-7.66485823829281e+000°)
1.81970085860997e+002	(1.81125713704443e-001dB,-7.85191587767183e+000°)
1.86208713666286e+002	(1.89659000758140e-001dB,-8.04395464393932e+000°)
1.90546071796323e+002	(1.98593191990285e-001dB,-8.24113699247227e+000°)
1.94984459975803e+002	(2.07947010915100e-001dB,-8.44363270594731e+000°)
1.99526231496887e+002	(2.17740039379915e-001dB,-8.65161934601211e+000°)
2.04173794466952e+002	(2.27992754494676e-001dB,-8.86528273900581e+000°)
2.08929613085403e+002	(2.38726566769909e-001dB,-9.08481749863252e+000°)
2.13796208950222e+002	(2.49963859437332e-001dB,-9.31042758876273e+000°)
2.18776162394954e+002	(2.61728028912808e-001dB,-9.54232692983780e+000°)
2.23872113856832e+002	(2.74043526343801e-001dB,-9.78074005268140e+000°)
2.29086765276776e+002	(2.86935900163037e-001dB,-1.00259028038852e+001°)
2.34422881531991e+002	(3.00431839544848e-001dB,-1.02780631073365e+001°)
2.39883291901947e+002	(3.14559218631615e-001dB,-1.05374817868956e+001°)
2.45470891568501e+002	(3.29347141362386e-001dB,-1.08044334557192e+001°)
2.51188643150956e+002	(3.44825986694313e-001dB,-1.10792074782601e+001°)
2.57039578276885e+002	(3.61027453958229e-001dB,-1.13621090115658e+001°)
2.63026799189536e+002	(3.77984608031302e-001dB,-1.16534601331516e+001°)
2.69153480392690e+002	(3.95731923940635e-001dB,-1.19536010634414e+001°)
2.75422870333815e+002	(4.14305330429936e-001dB,-1.22628914915601e+001°)
2.81838293126443e+002	(4.33742251924781e-001dB,-1.25817120141367e+001°)
2.88403150312659e+002	(4.54081648217689e-001dB,-1.29104656977321e+001°)
2.95120922666637e+002	(4.75364051059132e-001dB,-1.32495797765619e+001°)
3.01995172040200e+002	(4.97631596681056e-001dB,-1.35995074983419e+001°)
3.09029543251357e+002	(5.20928053090570e-001dB,-1.39607301323456e+001°)
3.16227766016836e+002	(5.45298840748380e-001dB,-1.43337591551544e+001°)
3.23593656929626e+002	(5.70791044982691e-001dB,-1.47191386310819e+001°)
3.31131121482589e+002	(5.97453418177194e-001dB,-1.51174478058963e+001°)
3.38844156139200e+002	(6.25336369402458e-001dB,-1.55293039342311e+001°)
3.46736850452529e+002	(6.54491938723667e-001dB,-1.59553653629787e+001°)
3.54813389233573e+002	(6.84973752900208e-001dB,-1.63963348949866e+001°)
3.63078054770099e+002	(7.16836958581668e-001dB,-1.68529634595250e+001°)
3.71535229097170e+002	(7.50138128380130e-001dB,-1.73260541182308e+001°)
3.80189396320558e+002	(7.84935134342218e-001dB,-1.78164664375346e+001°)
3.89045144994278e+002	(8.21286982329962e-001dB,-1.83251212608931e+001°)
3.98107170553494e+002	(8.59253599619637e-001dB,-1.88530059163925e+001°)
4.07380277804110e+002	(8.98895566608376e-001dB,-1.94011798973776e+001°)
4.16869383470332e+002	(9.40273781840813e-001dB,-1.99707810555224e+001°)
4.26579518801589e+002	(9.83449047586721e-001dB,-2.05630323470166e+001°)
4.36515832240163e+002	(1.02848156086365e+000dB,-2.11792491730045e+001°)
4.46683592150960e+002	(1.07543029204677e+000dB,-2.18208473547275e+001°)
4.57088189614872e+002	(1.12435222997422e+000dB,-2.24893517814862e+001°)
4.67735141287195e+002	(1.17530146866713e+000dB,-2.31864057649161e+001°)
4.78630092322635e+002	(1.22832810635915e+000dB,-2.39137811252974e+001°)
4.89778819368443e+002	(1.28347692238859e+000dB,-2.46733890235800e+001°)
5.01187233627268e+002	(1.34078579156574e+000dB,-2.54672915350534e+001°)
5.12861383991361e+002	(1.40028378881791e+000dB,-2.62977139352313e+001°)
5.24807460249769e+002	(1.46198892918485e+000dB,-2.71670576331658e+001°)
5.37031796370249e+002	(1.52590547957918e+000dB,-2.80779136389845e+001°)
5.49540873857620e+002	(1.59202076920093e+000dB,-2.90330763871020e+001°)
5.62341325190345e+002	(1.66030141527171e+000dB,-3.00355576495178e+001°)
